
**** 01/03/17 17:00:06 ********* PSpice 9.2 (Mar 2000) ******** ID# 1 ********

 * C:\Users\abyan\Documents\UT-951\ELECII\project\project2\Schematic1.sch


 ****     CIRCUIT DESCRIPTION


******************************************************************************




* Schematics Version 9.2
* Tue Jan 03 17:00:03 2017



** Analysis setup **
.tran 0ns 2m
.four 1k 5 v([$N_0001])
.OP 
.LIB "C:\Users\abyan\Documents\UT-951\ELECII\project\project2\Schematic1.lib"


* From [PSPICE NETLIST] section of C:\Program Files\Orcad\PSpice\PSpice.ini:
.lib "nom.lib"

.INC "Schematic1.net"



**** INCLUDING Schematic1.net ****
* Schematics Netlist *



R_RL         0 $N_0001  8  
V_VEE         0 $N_0002 12v
V_VCC         $N_0003 0 12v
R_RC1         $N_0004 $N_0003  75  
R_RC2         $N_0002 $N_0005  75  
R_Re2         $N_0006 $N_0001  0.5  
R_Re1         $N_0001 $N_0007  0.5  
Q_Q1         $N_0003 $N_0004 $N_0007 TIP41-X
Q_Q2         $N_0002 $N_0005 $N_0006 TIP42-X
Q_Q3         $N_0002 $N_0008 $N_0004 BC179B 
Q_Q4         $N_0003 $N_0008 $N_0005 BC107A 
V_vin         $N_0009 0  
+SIN 0v 9.3 1k 0 0 0
R_Rb1         $N_0008 $N_0003  600  
R_Rb2         $N_0002 $N_0008  600  
C_C3         $N_0009 $N_0008  1  

**** RESUMING Schematic1.cir ****
.PROBE V(*) I(*) W(*) D(*) NOISE(*) 


.END

**** 01/03/17 17:00:06 ********* PSpice 9.2 (Mar 2000) ******** ID# 1 ********

 * C:\Users\abyan\Documents\UT-951\ELECII\project\project2\Schematic1.sch


 ****     BJT MODEL PARAMETERS


******************************************************************************




               TIP41-X         TIP42-X         BC179B          BC107A          
               NPN             PNP             PNP             NPN             
          IS  457.500000E-15   66.190000E-15  336.700000E-15    7.049000E-15 
          BF   50              45             271.9           375.5          
          NF    1               1               1               1            
         VAF   50             100              30.75          116.3          
         IKF    3.296           1.642            .2462          4.589        
         ISE    1.346000E-12  862.200000E-15    2.821000E-12    7.049000E-15 
          NE    1.34            1.481           1.925           1.281        
          BR    7.639           5.88            3.009           2.611        
          NR    1               1               1               1            
         IKR    8.131000E-03    3.555           8.143           5.313        
         ISC  604.100000E-15  273.500000E-15    1.753000E-09  121.700000E-12 
          NC    2.168           1.24            2.075           1.865        
          NK     .5961           .5695           .5416                       
          RB     .1              .1                                          
          RC     .09129          .07939         1.803           1.464        
         CJE  433.000000E-12  390.100000E-12   33.000000E-12   11.500000E-12 
         VJE                                     .5              .5          
         MJE     .5              .4343           .3333           .2717       
         CJC  278.700000E-12  870.400000E-12   11.000000E-12    5.380000E-12 
         VJC                                     .5              .6218       
         MJC     .385            .6481           .2223           .329        
          TF   37.340000E-09   23.210000E-09  846.000000E-12  451.000000E-12 
         XTF    1.163           5.982          18.27           17.43         
         VTF   10              10              10              10            
         ITF   35.68           71.33            1.546           6.194        
          TR    1.412000E-06  235.400000E-09   10.000000E-09   10.000000E-09 
         XTB    2.2             2               1.5             1.5          
          CN    2.42            2.2             2.2             2.42         
           D     .87             .52             .52             .87         


**** 01/03/17 17:00:06 ********* PSpice 9.2 (Mar 2000) ******** ID# 1 ********

 * C:\Users\abyan\Documents\UT-951\ELECII\project\project2\Schematic1.sch


 ****     SMALL SIGNAL BIAS SOLUTION       TEMPERATURE =   27.000 DEG C


******************************************************************************



 NODE   VOLTAGE     NODE   VOLTAGE     NODE   VOLTAGE     NODE   VOLTAGE


($N_0001)    -.0026                   ($N_0002)  -12.0000                       

($N_0003)   12.0000                   ($N_0004)     .7142                       

($N_0005)    -.7729                   ($N_0006)    -.0504                       

($N_0007)     .0450                   ($N_0008)     .0186                       

($N_0009)    0.0000                   




    VOLTAGE SOURCE CURRENTS
    NAME         CURRENT

    V_VEE       -4.111E-01
    V_VCC       -4.108E-01
    V_vin        0.000E+00

    TOTAL POWER DISSIPATION   9.86E+00  WATTS


**** 01/03/17 17:00:06 ********* PSpice 9.2 (Mar 2000) ******** ID# 1 ********

 * C:\Users\abyan\Documents\UT-951\ELECII\project\project2\Schematic1.sch


 ****     OPERATING POINT INFORMATION      TEMPERATURE =   27.000 DEG C


******************************************************************************






**** BIPOLAR JUNCTION TRANSISTORS


NAME         Q_Q1        Q_Q2        Q_Q3        Q_Q4      
MODEL        TIP41-X     TIP42-X     BC179B      BC107A    
IB           1.89E-03   -2.11E-03   -5.95E-04    5.33E-04 
IC           9.33E-02   -9.34E-02   -1.48E-01    1.47E-01 
VBE          6.69E-01   -7.23E-01   -6.96E-01    7.91E-01 
VBC         -1.13E+01    1.12E+01    1.20E+01   -1.20E+01 
VCE          1.20E+01   -1.20E+01   -1.27E+01    1.28E+01 
BETADC       4.94E+01    4.43E+01    2.49E+02    2.76E+02 
GM           3.51E+00    3.42E+00    4.22E+00    5.53E+00 
RPI          1.43E+01    1.25E+01    4.36E+01    5.21E+01 
RX           1.00E-01    1.00E-01    0.00E+00    0.00E+00 
RO           6.57E+02    1.19E+03    2.87E+02    8.71E+02 
CBE          1.32E-07    8.01E-08    4.53E-09    2.54E-09 
CBC          9.58E-11    1.45E-10    5.40E-12    2.01E-12 
CJS          0.00E+00    0.00E+00    0.00E+00    0.00E+00 
BETAAC       5.02E+01    4.28E+01    1.84E+02    2.88E+02 
CBX/CBX2     0.00E+00    0.00E+00    0.00E+00    0.00E+00 
FT/FT2       4.23E+06    6.78E+06    1.48E+08    3.46E+08 


**** 01/03/17 17:00:06 ********* PSpice 9.2 (Mar 2000) ******** ID# 1 ********

 * C:\Users\abyan\Documents\UT-951\ELECII\project\project2\Schematic1.sch


 ****     INITIAL TRANSIENT SOLUTION       TEMPERATURE =   27.000 DEG C


******************************************************************************



 NODE   VOLTAGE     NODE   VOLTAGE     NODE   VOLTAGE     NODE   VOLTAGE


($N_0001)    -.0026                   ($N_0002)  -12.0000                       

($N_0003)   12.0000                   ($N_0004)     .7142                       

($N_0005)    -.7729                   ($N_0006)    -.0504                       

($N_0007)     .0450                   ($N_0008)     .0186                       

($N_0009)    0.0000                   




    VOLTAGE SOURCE CURRENTS
    NAME         CURRENT

    V_VEE       -4.111E-01
    V_VCC       -4.108E-01
    V_vin        0.000E+00

    TOTAL POWER DISSIPATION   9.86E+00  WATTS


**** 01/03/17 17:00:06 ********* PSpice 9.2 (Mar 2000) ******** ID# 1 ********

 * C:\Users\abyan\Documents\UT-951\ELECII\project\project2\Schematic1.sch


 ****     FOURIER ANALYSIS                 TEMPERATURE =   27.000 DEG C


******************************************************************************



FOURIER COMPONENTS OF TRANSIENT RESPONSE V($N_0001)



 DC COMPONENT =   4.704800E-02

 HARMONIC   FREQUENCY    FOURIER    NORMALIZED    PHASE        NORMALIZED
    NO         (HZ)     COMPONENT    COMPONENT    (DEG)       PHASE (DEG)

     1     1.000E+03    8.486E+00    1.000E+00    5.235E-03    0.000E+00
     2     2.000E+03    9.240E-02    1.089E-02   -8.862E+01   -8.864E+01
     3     3.000E+03    1.412E-01    1.664E-02    3.385E+00    3.369E+00
     4     4.000E+03    7.587E-02    8.941E-03    9.016E+01    9.014E+01
     5     5.000E+03    8.050E-02    9.487E-03   -1.752E+02   -1.752E+02


     TOTAL HARMONIC DISTORTION =   2.377701E+00 PERCENT


          JOB CONCLUDED

          TOTAL JOB TIME             .05
